time	V(Reset,R-PI_GND)	V(pulse)	V(reset)	V(vl)
0.000000000000000e+000	3.296703e+000	0.000000e+000	1.516439e-013	0.000000e+000
2.106514226137994e-005	3.296242e+000	0.000000e+000	2.058243e+000	2.059188e+000
4.213028452275988e-005	3.295783e+000	0.000000e+000	4.115218e+000	4.118060e+000
6.319542678413982e-005	3.295327e+000	0.000000e+000	6.170925e+000	6.176618e+000
8.426056904551975e-005	3.294873e+000	0.000000e+000	8.225363e+000	8.234860e+000
1.053257113068997e-004	3.294422e+000	0.000000e+000	1.027853e+001	1.029279e+001
1.263908535682796e-004	3.293973e+000	0.000000e+000	1.233043e+001	1.235040e+001
1.474559958296595e-004	3.293528e+000	0.000000e+000	1.438107e+001	1.440770e+001
2.846719919489261e-004	3.290562e+000	0.000000e+000	2.775455e+001	2.784896e+001
4.218879880681926e-004	3.287635e+000	0.000000e+000	4.097587e+001	4.117719e+001
5.591039841874592e-004	3.284747e+000	0.000000e+000	5.404503e+001	5.439239e+001
6.963199803067257e-004	3.281898e+000	0.000000e+000	6.696203e+001	6.749457e+001
8.335359764259922e-004	3.279087e+000	0.000000e+000	7.972686e+001	8.048371e+001
9.707519725452588e-004	3.276315e+000	0.000000e+000	9.233954e+001	9.335983e+001
1.107967968664525e-003	3.273582e+000	0.000000e+000	1.048001e+002	1.061229e+002
1.357531390177818e-003	3.268775e+000	0.000000e+000	1.270327e+002	1.290144e+002
1.607094811691111e-003	3.264163e+000	0.000000e+000	1.480555e+002	1.507986e+002
1.856658233204404e-003	3.259748e+000	0.000000e+000	1.678683e+002	1.714757e+002
2.106221654717696e-003	3.255529e+000	0.000000e+000	1.864713e+002	1.910455e+002
2.355785076230989e-003	3.251506e+000	0.000000e+000	2.038643e+002	2.095082e+002
2.605348497744282e-003	3.247680e+000	0.000000e+000	2.200474e+002	2.268637e+002
2.854911919257575e-003	3.244049e+000	0.000000e+000	2.350207e+002	2.431120e+002
3.455853616547497e-003	3.234821e+000	0.000000e+000	2.638375e+002	2.756044e+002
4.056795313837419e-003	3.228909e+000	0.000000e+000	2.821023e+002	2.975047e+002
4.657737011127341e-003	3.226312e+000	0.000000e+000	2.898150e+002	3.088131e+002
5.258678708417263e-003	3.227031e+000	0.000000e+000	2.869757e+002	3.095294e+002
5.859620405707185e-003	3.231067e+000	0.000000e+000	2.735843e+002	2.996538e+002
6.460562102997107e-003	3.238418e+000	0.000000e+000	2.496408e+002	2.791862e+002
7.061503800287028e-003	3.249084e+000	0.000000e+000	2.151453e+002	2.481265e+002
7.145471797912251e-003	3.250330e+000	0.000000e+000	2.097054e+002	2.430797e+002
7.229439795537473e-003	3.251594e+000	0.000000e+000	2.041167e+002	2.378731e+002
7.313407793162696e-003	3.252876e+000	0.000000e+000	1.983792e+002	2.325068e+002
7.397375790787919e-003	3.254178e+000	0.000000e+000	1.924930e+002	2.269807e+002
7.481343788413142e-003	3.255498e+000	0.000000e+000	1.864579e+002	2.212950e+002
7.565311786038365e-003	3.256837e+000	0.000000e+000	1.802741e+002	2.154495e+002
7.649279783663587e-003	3.258194e+000	0.000000e+000	1.739415e+002	2.094442e+002
7.657471783431902e-003	3.258423e+000	0.000000e+000	1.733175e+002	2.088515e+002
7.854957492132339e-003	3.261863e+000	0.000000e+000	1.577349e+002	1.939932e+002
8.052443200832775e-003	3.265417e+000	0.000000e+000	1.416361e+002	1.785438e+002
8.249928909533213e-003	3.269083e+000	0.000000e+000	1.250213e+002	1.625032e+002
8.447414618233649e-003	3.272861e+000	0.000000e+000	1.078903e+002	1.458715e+002
8.644900326934086e-003	3.276753e+000	0.000000e+000	9.024317e+001	1.286486e+002
8.842386035634524e-003	3.280757e+000	0.000000e+000	7.207995e+001	1.108346e+002
9.039871744334960e-003	3.284874e+000	0.000000e+000	5.340060e+001	9.242954e+001
9.113599742249789e-003	3.286431e+000	0.000000e+000	4.640623e+001	8.551491e+001
9.187327740164619e-003	3.287991e+000	0.000000e+000	3.938686e+001	7.856377e+001
9.261055738079449e-003	3.289553e+000	0.000000e+000	3.234251e+001	7.157613e+001
9.334783735994279e-003	3.291117e+000	0.000000e+000	2.527317e+001	6.455199e+001
9.408511733909108e-003	3.292683e+000	0.000000e+000	1.817884e+001	5.749136e+001
9.482239731823938e-003	3.294252e+000	0.000000e+000	1.105952e+001	5.039422e+001
9.555967729738768e-003	3.295822e+000	0.000000e+000	3.915218e+000	4.326057e+001
9.579958586203117e-003	3.296339e+000	0.000000e+000	1.590576e+000	4.093687e+001
9.603949442667467e-003	3.296856e+000	0.000000e+000	-7.348288e-001	3.861118e+001
9.627940299131816e-003	3.297371e+000	0.000000e+000	-3.060997e+000	3.628349e+001
9.651931155596165e-003	3.297886e+000	0.000000e+000	-5.387930e+000	3.395380e+001
9.675922012060514e-003	3.298401e+000	0.000000e+000	-7.715625e+000	3.162212e+001
9.699912868524865e-003	3.298915e+000	0.000000e+000	-1.004408e+001	2.928844e+001
9.723903724989214e-003	3.299428e+000	0.000000e+000	-1.237331e+001	2.695276e+001
9.986047717575275e-003	3.305054e+000	0.000000e+000	-3.781148e+001	1.363739e+000
9.994239717343589e-003	3.478279e+000	0.000000e+000	-3.843205e+001	7.360946e-001
1.001062371688022e-002	3.493000e+000	0.000000e+000	-3.896631e+001	1.876765e-001
1.004339171595348e-002	3.305317e+000	0.000000e+000	-3.912569e+001	0.000000e+000
1.146447436544154e-002	3.302668e+000	0.000000e+000	-3.792328e+001	0.000000e+000
1.288555701492961e-002	3.300822e+000	0.000000e+000	-3.675459e+001	0.000000e+000
1.430663966441768e-002	3.299778e+000	0.000000e+000	-3.561962e+001	0.000000e+000
1.572772231390575e-002	3.299536e+000	0.000000e+000	-3.451836e+001	0.000000e+000
1.714880496339382e-002	3.300097e+000	0.000000e+000	-3.345082e+001	0.000000e+000
1.856988761288189e-002	3.301461e+000	0.000000e+000	-3.241700e+001	0.000000e+000
1.999097026236996e-002	3.303627e+000	0.000000e+000	-3.141689e+001	0.000000e+000
1.999478495963558e-002	3.342945e+000	0.000000e+000	-3.137493e+001	3.933120e-002
2.000241435416683e-002	3.354530e+000	0.000000e+000	-3.112209e+001	2.869608e-001
2.000432170279964e-002	3.303530e+000	0.000000e+000	-3.098535e+001	4.224178e-001
2.005064302673938e-002	3.302523e+000	0.000000e+000	-2.642726e+001	4.952208e+000
2.009696435067911e-002	3.301517e+000	0.000000e+000	-2.187725e+001	9.478554e+000
2.014328567461884e-002	3.300512e+000	0.000000e+000	-1.733531e+001	1.400146e+001
2.018960699855857e-002	3.299508e+000	0.000000e+000	-1.280145e+001	1.852091e+001
2.023592832249830e-002	3.298504e+000	0.000000e+000	-8.275671e+000	2.303693e+001
2.028224964643804e-002	3.297501e+000	0.000000e+000	-3.757965e+000	2.754950e+001
2.032857097037777e-002	3.296499e+000	0.000000e+000	7.516642e-001	3.205863e+001
2.034573710807308e-002	3.296141e+000	0.000000e+000	2.419292e+000	3.372723e+001
2.036290324576839e-002	3.295780e+000	0.000000e+000	4.085185e+000	3.539472e+001
2.038006938346371e-002	3.295415e+000	0.000000e+000	5.749343e+000	3.706111e+001
2.039723552115902e-002	3.295048e+000	0.000000e+000	7.411766e+000	3.872640e+001
2.041440165885433e-002	3.294677e+000	0.000000e+000	9.072454e+000	4.039058e+001
2.043156779654964e-002	3.294303e+000	0.000000e+000	1.073141e+001	4.205365e+001
2.044873393424496e-002	3.293926e+000	0.000000e+000	1.238863e+001	4.371563e+001
2.058224833854183e-002	3.291099e+000	0.000000e+000	2.526273e+001	5.664934e+001
2.071576274283871e-002	3.288307e+000	0.000000e+000	3.794553e+001	6.942801e+001
2.084927714713558e-002	3.285552e+000	0.000000e+000	5.043704e+001	8.205163e+001
2.098279155143246e-002	3.282832e+000	0.000000e+000	6.273725e+001	9.452020e+001
2.111630595572933e-002	3.280148e+000	0.000000e+000	7.484616e+001	1.068337e+002
2.124982036002621e-002	3.277500e+000	0.000000e+000	8.676378e+001	1.189922e+002
2.138333476432308e-002	3.274887e+000	0.000000e+000	9.849010e+001	1.309956e+002
2.151221703622598e-002	3.272461e+000	0.000000e+000	1.095494e+002	1.423553e+002
2.164109930812888e-002	3.270099e+000	0.000000e+000	1.203024e+002	1.534375e+002
2.176998158003179e-002	3.267802e+000	0.000000e+000	1.307492e+002	1.642423e+002
2.189886385193469e-002	3.265570e+000	0.000000e+000	1.408898e+002	1.747697e+002
2.202774612383759e-002	3.263403e+000	0.000000e+000	1.507242e+002	1.850197e+002
2.215662839574049e-002	3.261300e+000	0.000000e+000	1.602523e+002	1.949923e+002
2.228551066764339e-002	3.259262e+000	0.000000e+000	1.694742e+002	2.046874e+002
2.228741801627621e-002	3.259277e+000	0.000000e+000	1.696075e+002	2.048278e+002
2.265553630240902e-002	3.279222e+000	0.000000e+000	1.942372e+002	2.310057e+002
2.302365458854183e-002	3.280689e+000	0.000000e+000	2.150668e+002	2.534951e+002
2.339177287467464e-002	3.263679e+000	0.000000e+000	2.320961e+002	2.722961e+002
2.375989116080746e-002	3.228192e+000	0.000000e+000	2.453252e+002	2.874086e+002
2.412800944694027e-002	3.174227e+000	0.000000e+000	2.547541e+002	2.988327e+002
2.449612773307308e-002	3.101784e+000	0.000000e+000	2.603828e+002	3.065683e+002
2.486424601920589e-002	3.010864e+000	0.000000e+000	2.622113e+002	3.106154e+002
2.516942180045589e-002	3.182526e+000	0.000000e+000	2.604643e+002	3.106293e+002
2.550920233547263e-002	3.206218e+000	0.000000e+000	2.545615e+002	3.067263e+002
2.584898287048938e-002	3.225821e+000	0.000000e+000	2.456025e+002	2.996498e+002
2.618876340550612e-002	3.241335e+000	0.000000e+000	2.335874e+002	2.893999e+002
2.652854394052286e-002	3.252760e+000	0.000000e+000	2.185162e+002	2.759765e+002
2.686832447553960e-002	3.260095e+000	0.000000e+000	2.003888e+002	2.593797e+002
2.720810501055634e-002	3.263341e+000	0.000000e+000	1.792052e+002	2.396094e+002
2.754788554557308e-002	3.262497e+000	0.000000e+000	1.549655e+002	2.166656e+002
2.773535066834094e-002	3.265636e+000	0.000000e+000	1.407015e+002	2.030158e+002
2.792281579110880e-002	3.268889e+000	0.000000e+000	1.259283e+002	1.887914e+002
2.811028091387665e-002	3.272254e+000	0.000000e+000	1.106460e+002	1.739921e+002
2.829774603664451e-002	3.275733e+000	0.000000e+000	9.485461e+001	1.586181e+002
2.848521115941237e-002	3.279324e+000	0.000000e+000	7.855408e+001	1.426694e+002
2.867267628218023e-002	3.283029e+000	0.000000e+000	6.174443e+001	1.261459e+002
2.886014140494808e-002	3.286846e+000	0.000000e+000	4.442566e+001	1.090477e+002
2.892253895307866e-002	3.288137e+000	0.000000e+000	3.863144e+001	1.033094e+002
2.898493650120924e-002	3.289431e+000	0.000000e+000	3.281121e+001	9.753708e+001
2.904733404933982e-002	3.290729e+000	0.000000e+000	2.696495e+001	9.173061e+001
2.910973159747040e-002	3.292032e+000	0.000000e+000	2.109267e+001	8.589003e+001
2.917212914560098e-002	3.293338e+000	0.000000e+000	1.519436e+001	8.001533e+001
2.923452669373156e-002	3.294648e+000	0.000000e+000	9.270035e+000	7.410653e+001
2.929692424186214e-002	3.295962e+000	0.000000e+000	3.319687e+000	6.816360e+001
2.932798677673938e-002	3.296614e+000	0.000000e+000	3.527770e-001	6.519729e+001
2.935904931161661e-002	3.297267e+000	0.000000e+000	-2.617590e+000	6.222548e+001
2.939011184649384e-002	3.297921e+000	0.000000e+000	-5.591416e+000	5.924817e+001
2.942117438137107e-002	3.298576e+000	0.000000e+000	-8.568699e+000	5.626537e+001
2.945223691624830e-002	3.299232e+000	0.000000e+000	-1.154944e+001	5.327706e+001
2.948329945112554e-002	3.299889e+000	0.000000e+000	-1.453364e+001	5.028325e+001
2.951436198600277e-002	3.300547e+000	0.000000e+000	-1.752130e+001	4.728395e+001
2.991490519889339e-002	3.309090e+000	0.000000e+000	-5.615468e+001	8.316461e+000
2.999119914420589e-002	3.310699e+000	0.000000e+000	-6.350857e+001	8.602245e-001
2.999501384147152e-002	3.353844e+000	0.000000e+000	-6.383292e+001	5.304236e-001
3.000264323600277e-002	3.473312e+000	0.000000e+000	-6.419003e+001	1.624547e-001
3.001790202506527e-002	3.310875e+000	0.000000e+000	-6.433080e+001	0.000000e+000
3.144187401864786e-002	3.306526e+000	0.000000e+000	-6.234984e+001	0.000000e+000
3.286584601223045e-002	3.303494e+000	0.000000e+000	-6.042453e+001	0.000000e+000
3.428981800581304e-002	3.301778e+000	0.000000e+000	-5.855488e+001	0.000000e+000
3.571378999939563e-002	3.301380e+000	0.000000e+000	-5.674089e+001	0.000000e+000
3.713776199297822e-002	3.302298e+000	0.000000e+000	-5.498257e+001	0.000000e+000
3.856173398656081e-002	3.304534e+000	0.000000e+000	-5.327990e+001	0.000000e+000
3.998570598014339e-002	3.308086e+000	0.000000e+000	-5.163289e+001	0.000000e+000
3.999333537467464e-002	3.448029e+000	0.000000e+000	-5.148425e+001	1.400037e-001
4.000859416373714e-002	3.372993e+000	0.000000e+000	-5.070203e+001	9.051636e-001
4.001240886100277e-002	3.307800e+000	0.000000e+000	-5.039013e+001	1.212880e+000
4.008597802255411e-002	3.306193e+000	0.000000e+000	-4.311650e+001	8.412333e+000
4.015954718410545e-002	3.304592e+000	0.000000e+000	-3.586862e+001	1.559772e+001
4.023311634565679e-002	3.302997e+000	0.000000e+000	-2.864649e+001	2.276904e+001
4.030668550720813e-002	3.301409e+000	0.000000e+000	-2.145011e+001	2.992629e+001
4.038025466875946e-002	3.299826e+000	0.000000e+000	-1.427947e+001	3.706948e+001
4.045382383031081e-002	3.298249e+000	0.000000e+000	-7.134582e+000	4.419860e+001
4.052739299186214e-002	3.296679e+000	0.000000e+000	-1.543939e-002	5.131365e+001
4.055409587272152e-002	3.296109e+000	0.000000e+000	2.556128e+000	5.388655e+001
4.058079875358089e-002	3.295541e+000	0.000000e+000	5.121950e+000	5.645521e+001
4.060750163444027e-002	3.294975e+000	0.000000e+000	7.682025e+000	5.901962e+001
4.063420451529964e-002	3.294411e+000	0.000000e+000	1.023636e+001	6.157980e+001
4.066090739615902e-002	3.293849e+000	0.000000e+000	1.278494e+001	6.413573e+001
4.068761027701839e-002	3.293289e+000	0.000000e+000	1.532778e+001	6.668741e+001
4.071431315787777e-002	3.292730e+000	0.000000e+000	1.786487e+001	6.923486e+001
4.086199643773268e-002	3.289651e+000	0.000000e+000	3.184450e+001	8.330084e+001
4.100967971758759e-002	3.286632e+000	0.000000e+000	4.552944e+001	9.711482e+001
4.115736299744250e-002	3.283673e+000	0.000000e+000	5.891969e+001	1.106768e+002
4.130504627729741e-002	3.280773e+000	0.000000e+000	7.201524e+001	1.239867e+002
4.145272955715233e-002	3.277932e+000	0.000000e+000	8.481611e+001	1.370447e+002
4.160041283700723e-002	3.275152e+000	0.000000e+000	9.732228e+001	1.498506e+002
4.174809611686214e-002	3.272430e+000	0.000000e+000	1.095338e+002	1.624046e+002
4.203910302255411e-002	3.267371e+000	0.000000e+000	1.326147e+002	1.862952e+002
4.233010992824608e-002	3.262721e+000	0.000000e+000	1.536374e+002	2.082383e+002
4.262111683393804e-002	3.258482e+000	0.000000e+000	1.726021e+002	2.282338e+002
4.291212373963000e-002	3.254652e+000	0.000000e+000	1.895086e+002	2.462817e+002
4.320313064532197e-002	3.251232e+000	0.000000e+000	2.043570e+002	2.623820e+002
4.349413755101393e-002	3.248221e+000	0.000000e+000	2.171473e+002	2.765348e+002
4.378514445670589e-002	3.245621e+000	0.000000e+000	2.278794e+002	2.887401e+002
4.423364386379295e-002	3.239187e+000	0.000000e+000	2.385812e+002	3.019494e+002
4.468214327088000e-002	3.235430e+000	0.000000e+000	2.434044e+002	3.091949e+002
4.513064267796706e-002	3.234352e+000	0.000000e+000	2.423488e+002	3.104766e+002
4.557914208505411e-002	3.235952e+000	0.000000e+000	2.354145e+002	3.057945e+002
4.602764149214116e-002	3.240230e+000	0.000000e+000	2.226016e+002	2.951486e+002
4.647614089922822e-002	3.247186e+000	0.000000e+000	2.039099e+002	2.785388e+002
4.692464030631527e-002	3.256821e+000	0.000000e+000	1.793396e+002	2.559653e+002
4.699957185974719e-002	3.257807e+000	0.000000e+000	1.748064e+002	2.517244e+002
4.707450341317911e-002	3.258834e+000	0.000000e+000	1.701484e+002	2.473505e+002
4.714943496661102e-002	3.259903e+000	0.000000e+000	1.653654e+002	2.428436e+002
4.722436652004295e-002	3.261012e+000	0.000000e+000	1.604576e+002	2.382036e+002
4.729929807347487e-002	3.262163e+000	0.000000e+000	1.554249e+002	2.334305e+002
4.737422962690679e-002	3.263355e+000	0.000000e+000	1.502673e+002	2.285245e+002
4.744916118033871e-002	3.264587e+000	0.000000e+000	1.449848e+002	2.234854e+002
4.745679057486996e-002	3.264786e+000	0.000000e+000	1.444412e+002	2.229660e+002
4.763989604361996e-002	3.267771e+000	0.000000e+000	1.309179e+002	2.100018e+002
4.782300151236996e-002	3.270870e+000	0.000000e+000	1.168787e+002	1.964606e+002
4.800610698111996e-002	3.274084e+000	0.000000e+000	1.023236e+002	1.823422e+002
4.818921244986996e-002	3.277413e+000	0.000000e+000	8.725266e+001	1.676468e+002
4.837231791861996e-002	3.280856e+000	0.000000e+000	7.166579e+001	1.523744e+002
4.855542338736996e-002	3.284414e+000	0.000000e+000	5.556304e+001	1.365248e+002
4.873852885611996e-002	3.288086e+000	0.000000e+000	3.894439e+001	1.200982e+002
4.879411444484764e-002	3.289202e+000	0.000000e+000	3.386680e+001	1.150642e+002
4.884970003357531e-002	3.290325e+000	0.000000e+000	2.876435e+001	1.099990e+002
4.890528562230299e-002	3.291456e+000	0.000000e+000	2.363702e+001	1.049027e+002
4.896087121103067e-002	3.292595e+000	0.000000e+000	1.848483e+001	9.977508e+001
4.901645679975835e-002	3.293741e+000	0.000000e+000	1.330776e+001	9.461631e+001
4.907204238848602e-002	3.294895e+000	0.000000e+000	8.105826e+000	8.942634e+001
4.912762797721371e-002	3.296056e+000	0.000000e+000	2.879021e+000	8.420518e+001
4.915814555533871e-002	3.296659e+000	0.000000e+000	3.267122e-003	8.132974e+001
4.923634684928402e-002	3.298303e+000	0.000000e+000	-7.401807e+000	7.391675e+001
4.931454814322933e-002	3.299949e+000	0.000000e+000	-1.482731e+001	6.647043e+001
4.939274943717464e-002	3.301598e+000	0.000000e+000	-2.227323e+001	5.899080e+001
4.947095073111996e-002	3.303250e+000	0.000000e+000	-2.973958e+001	5.147784e+001
4.954915202506527e-002	3.304904e+000	0.000000e+000	-3.722635e+001	4.393157e+001
4.962735331901058e-002	3.306560e+000	0.000000e+000	-4.473355e+001	3.635197e+001
4.970555461295589e-002	3.308220e+000	0.000000e+000	-5.226117e+001	2.873905e+001
4.998593486197933e-002	3.314178e+000	0.000000e+000	-7.921275e+001	1.374769e+000
4.999356425651058e-002	3.458061e+000	0.000000e+000	-7.980119e+001	7.727824e-001
5.000882304557308e-002	3.524124e+000	0.000000e+000	-8.033717e+001	2.096837e-001
5.003934062369808e-002	3.314430e+000	0.000000e+000	-8.049265e+001	0.000000e+000
5.145622817950166e-002	3.308982e+000	0.000000e+000	-7.802612e+001	0.000000e+000
5.287311573530523e-002	3.305184e+000	0.000000e+000	-7.562857e+001	0.000000e+000
5.429000329110879e-002	3.303037e+000	0.000000e+000	-7.329999e+001	0.000000e+000
5.570689084691237e-002	3.302540e+000	0.000000e+000	-7.104037e+001	0.000000e+000
5.712377840271594e-002	3.303693e+000	0.000000e+000	-6.884973e+001	0.000000e+000
5.854066595851951e-002	3.306497e+000	0.000000e+000	-6.672805e+001	0.000000e+000
5.995755351432308e-002	3.310951e+000	0.000000e+000	-6.467534e+001	0.000000e+000
5.997281230338558e-002	3.365166e+000	0.000000e+000	-6.459936e+001	5.424566e-002
6.000332988151058e-002	3.576492e+000	0.000000e+000	-6.401915e+001	5.912150e-001
6.001095927604183e-002	3.310703e+000	0.000000e+000	-6.352852e+001	1.071195e+000
6.010278448879295e-002	3.308684e+000	0.000000e+000	-5.441914e+001	1.006334e+001
6.019460970154406e-002	3.306678e+000	0.000000e+000	-4.535489e+001	1.902852e+001
6.028643491429518e-002	3.304685e+000	0.000000e+000	-3.633578e+001	2.796675e+001
6.037826012704629e-002	3.302706e+000	0.000000e+000	-2.736182e+001	3.687803e+001
6.047008533979741e-002	3.300739e+000	0.000000e+000	-1.843299e+001	4.576234e+001
6.056191055254852e-002	3.298786e+000	0.000000e+000	-9.549298e+000	5.461970e+001
6.065373576529964e-002	3.296846e+000	0.000000e+000	-7.107478e-001	6.345010e+001
6.067907625427844e-002	3.296306e+000	0.000000e+000	1.711576e+000	6.587326e+001
6.070441674325723e-002	3.295767e+000	0.000000e+000	4.127999e+000	6.829185e+001
6.072975723223602e-002	3.295228e+000	0.000000e+000	6.538520e+000	7.070589e+001
6.075509772121483e-002	3.294690e+000	0.000000e+000	8.943141e+000	7.311537e+001
6.078043821019362e-002	3.294152e+000	0.000000e+000	1.134186e+001	7.552029e+001
6.080577869917241e-002	3.293615e+000	0.000000e+000	1.373468e+001	7.792066e+001
6.083111918815121e-002	3.293078e+000	0.000000e+000	1.612159e+001	8.031647e+001
6.097607768424496e-002	3.290100e+000	0.000000e+000	2.971104e+001	9.398453e+001
6.112103618033871e-002	3.287180e+000	0.000000e+000	4.299716e+001	1.073898e+002
6.126599467643246e-002	3.284318e+000	0.000000e+000	5.597995e+001	1.205323e+002
6.141095317252621e-002	3.281515e+000	0.000000e+000	6.865942e+001	1.334121e+002
6.155591166861996e-002	3.278769e+000	0.000000e+000	8.103556e+001	1.460291e+002
6.170087016471371e-002	3.276082e+000	0.000000e+000	9.310838e+001	1.583833e+002
