time	V(Reset,R-PI_GND)	V(pulse)	V(reset)	V(vl)
0.000000000000000e+000	3.296703e+000	0.000000e+000	1.516439e-013	0.000000e+000
1.000000000000000e-009	3.296654e+000	3.300000e+000	4.889737e-005	9.774342e-005
3.380371452513368e-007	3.280298e+000	3.300000e+000	1.634327e-002	3.304091e-002
6.750742905026734e-007	3.264147e+000	3.300000e+000	3.231843e-002	6.598407e-002
1.012111435754010e-006	3.248202e+000	3.300000e+000	4.797438e-002	9.892724e-002
1.349148581005347e-006	3.232462e+000	3.300000e+000	6.331112e-002	1.318704e-001
1.686185726256684e-006	3.216927e+000	3.300000e+000	7.832864e-002	1.648136e-001
2.023222871508020e-006	3.201598e+000	3.300000e+000	9.302695e-002	1.977567e-001
2.360260016759357e-006	3.186474e+000	3.300000e+000	1.074061e-001	2.306999e-001
4.719556033518968e-006	3.086138e+000	3.300000e+000	2.005725e-001	4.613053e-001
9.438148067038194e-006	2.912915e+000	3.300000e+000	3.530749e-001	9.225144e-001
1.887533213407664e-005	2.690871e+000	3.300000e+000	5.958731e-001	1.844928e+000
2.059337882812304e-005	2.665645e+000	3.300000e+000	6.301797e-001	2.012853e+000
2.402947221621583e-005	2.607618e+000	3.300000e+000	6.817929e-001	2.348699e+000
3.090165899240141e-005	2.524141e+000	3.300000e+000	7.693465e-001	3.020386e+000
3.261970568644780e-005	2.509449e+000	3.300000e+000	7.872589e-001	3.188305e+000
3.605579907454059e-005	2.477670e+000	3.300000e+000	8.155246e-001	3.524140e+000
4.292798585072617e-005	2.431957e+000	3.300000e+000	8.634707e-001	4.195800e+000
4.808212593286536e-005	2.406512e+000	3.300000e+000	8.887550e-001	4.699530e+000
5.667235940309733e-005	2.377084e+000	3.300000e+000	9.203717e-001	5.539057e+000
6.869868626142209e-005	2.351465e+000	3.300000e+000	9.461360e-001	6.714323e+000
7.606174352162093e-005	2.343282e+000	3.300000e+000	9.542947e-001	7.433836e+000
8.342480078181975e-005	2.336475e+000	3.300000e+000	9.610909e-001	8.153300e+000
9.078785804201859e-005	2.331044e+000	3.300000e+000	9.665245e-001	8.872714e+000
9.815091530221743e-005	2.326988e+000	3.300000e+000	9.705954e-001	9.592079e+000
1.055139725624163e-004	2.324308e+000	3.300000e+000	9.733038e-001	1.031139e+001
1.128770298226151e-004	2.323004e+000	3.300000e+000	9.746496e-001	1.103066e+001
1.202400870828139e-004	2.323075e+000	3.300000e+000	9.746329e-001	1.174988e+001
2.348583450999090e-004	2.323790e+000	3.300000e+000	9.739472e-001	2.297091e+001
3.494766031170040e-004	2.325989e+000	3.300000e+000	9.717690e-001	3.412625e+001
4.640948611340991e-004	2.329672e+000	3.300000e+000	9.680982e-001	4.521591e+001
5.787131191511941e-004	2.334838e+000	3.300000e+000	9.629348e-001	5.623989e+001
6.933313771682892e-004	2.341489e+000	3.300000e+000	9.562788e-001	6.719819e+001
8.079496351853843e-004	2.349623e+000	3.300000e+000	9.481301e-001	7.809080e+001
9.225678932024790e-004	2.359241e+000	3.300000e+000	9.384889e-001	8.891772e+001
1.157694855044828e-003	2.382431e+000	3.300000e+000	9.152756e-001	1.109466e+002
1.392821816887177e-003	2.410155e+000	3.300000e+000	8.875225e-001	1.320974e+002
1.627948778729526e-003	2.442413e+000	3.300000e+000	8.552295e-001	1.523701e+002
1.863075740571876e-003	2.479207e+000	3.300000e+000	8.183967e-001	1.717647e+002
2.098202702414225e-003	2.520535e+000	3.300000e+000	7.770240e-001	1.902811e+002
2.333329664256574e-003	2.566398e+000	3.300000e+000	7.311115e-001	2.079194e+002
2.568456626098923e-003	2.616795e+000	3.300000e+000	6.806592e-001	2.246796e+002
2.787384861968834e-003	2.667189e+000	3.300000e+000	6.301789e-001	2.390678e+002
3.006313097838746e-003	2.719927e+000	3.300000e+000	5.773732e-001	2.521894e+002
3.225241333708658e-003	2.775008e+000	3.300000e+000	5.222421e-001	2.640443e+002
3.444169569578570e-003	2.832433e+000	3.300000e+000	4.647855e-001	2.746326e+002
3.663097805448482e-003	2.892201e+000	3.300000e+000	4.050036e-001	2.839543e+002
3.882026041318393e-003	2.954312e+000	3.300000e+000	3.428962e-001	2.920094e+002
4.100954277188305e-003	3.018767e+000	3.300000e+000	2.784633e-001	2.987979e+002
4.150041325589630e-003	3.033079e+000	3.300000e+000	2.639552e-001	3.001004e+002
4.199128373990956e-003	3.047512e+000	3.300000e+000	2.494080e-001	3.013305e+002
4.248215422392281e-003	3.062065e+000	3.300000e+000	2.348220e-001	3.024883e+002
4.297302470793607e-003	3.076739e+000	3.300000e+000	2.201970e-001	3.035739e+002
4.346389519194933e-003	3.091533e+000	3.300000e+000	2.055330e-001	3.045871e+002
4.395476567596258e-003	3.106448e+000	3.300000e+000	1.908301e-001	3.055280e+002
4.444563615997583e-003	3.121483e+000	3.300000e+000	1.760883e-001	3.063966e+002
4.458307989549954e-003	3.124051e+000	3.300000e+000	1.720445e-001	3.066298e+002
4.540774230864181e-003	3.150634e+000	3.300000e+000	1.469476e-001	3.078890e+002
4.554518604416552e-003	3.153186e+000	3.300000e+000	1.428722e-001	3.080821e+002
4.582007351521295e-003	3.162810e+000	3.300000e+000	1.344274e-001	3.084368e+002
4.636984845730779e-003	3.179878e+000	3.300000e+000	1.176749e-001	3.091001e+002
4.650729219283150e-003	3.182440e+000	3.300000e+000	1.135828e-001	3.092530e+002
4.678217966387893e-003	3.192102e+000	3.300000e+000	1.051063e-001	3.095270e+002
4.843150449016346e-003	3.242420e+000	3.300000e+000	5.425603e-002	3.105639e+002
5.063060425854284e-003	3.312392e+000	3.300000e+000	-1.074992e-002	3.109731e+002
5.118037920063769e-003	3.317022e+000	3.300000e+000	-2.748806e-002	3.108667e+002
5.227992908482738e-003	3.365914e+000	3.300000e+000	-6.416794e-002	3.103061e+002
5.255481655587480e-003	3.366055e+000	3.300000e+000	-7.263738e-002	3.101138e+002
5.310459149796965e-003	3.386395e+000	3.300000e+000	-8.875525e-002	3.096425e+002
5.324203523349336e-003	3.388729e+000	3.300000e+000	-9.295093e-002	3.095117e+002
5.351692270454078e-003	3.398313e+000	3.300000e+000	-1.013646e-001	3.092184e+002
5.406669764663563e-003	3.415417e+000	3.300000e+000	-1.181164e-001	3.085855e+002
5.420414138215934e-003	3.417974e+000	3.300000e+000	-1.222059e-001	3.084144e+002
5.447902885320676e-003	3.427621e+000	3.300000e+000	-1.306570e-001	3.080404e+002
5.502880379530161e-003	3.444660e+000	3.300000e+000	-1.473877e-001	3.072466e+002
5.516624753082532e-003	3.447201e+000	3.300000e+000	-1.514618e-001	3.070352e+002
5.544113500187274e-003	3.456805e+000	3.300000e+000	-1.598735e-001	3.065811e+002
5.599090994396759e-003	3.473761e+000	3.300000e+000	-1.765240e-001	3.056270e+002
5.612835367949130e-003	3.476289e+000	3.300000e+000	-1.805773e-001	3.053757e+002
5.654068488606243e-003	3.489186e+000	3.300000e+000	-1.931256e-001	3.045793e+002
5.695301609263357e-003	3.501940e+000	3.300000e+000	-2.056104e-001	3.037319e+002
5.736534729920470e-003	3.514550e+000	3.300000e+000	-2.180319e-001	3.028335e+002
5.777767850577584e-003	3.527016e+000	3.300000e+000	-2.303899e-001	3.018842e+002
5.819000971234696e-003	3.539339e+000	3.300000e+000	-2.426845e-001	3.008839e+002
5.860234091891810e-003	3.551518e+000	3.300000e+000	-2.549158e-001	2.998327e+002
5.901467212548923e-003	3.563553e+000	3.300000e+000	-2.670836e-001	2.987305e+002
5.947609038046169e-003	3.577178e+000	3.300000e+000	-2.806982e-001	2.974385e+002
5.993750863543416e-003	3.590709e+000	3.300000e+000	-2.942453e-001	2.960847e+002
6.039892689040661e-003	3.604147e+000	3.300000e+000	-3.077247e-001	2.946692e+002
6.086034514537908e-003	3.617492e+000	3.300000e+000	-3.211367e-001	2.931919e+002
6.132176340035153e-003	3.630743e+000	3.300000e+000	-3.344810e-001	2.916528e+002
6.178318165532400e-003	3.643902e+000	3.300000e+000	-3.477578e-001	2.900519e+002
6.224459991029645e-003	3.656967e+000	3.300000e+000	-3.609671e-001	2.883893e+002
6.247530903778269e-003	3.663655e+000	3.300000e+000	-3.675777e-001	2.875354e+002
6.270601816526891e-003	3.670274e+000	3.300000e+000	-3.741626e-001	2.866666e+002
6.293672729275514e-003	3.676825e+000	3.300000e+000	-3.807218e-001	2.857828e+002
6.316743642024138e-003	3.683306e+000	3.300000e+000	-3.872551e-001	2.848840e+002
6.339814554772761e-003	3.689718e+000	3.300000e+000	-3.937627e-001	2.839702e+002
6.362885467521383e-003	3.696060e+000	3.300000e+000	-4.002446e-001	2.830414e+002
6.385956380270006e-003	3.702334e+000	3.300000e+000	-4.067007e-001	2.820977e+002
6.400682494790404e-003	3.706384e+000	3.300000e+000	-4.108184e-001	2.814875e+002
6.415408609310802e-003	3.710398e+000	3.300000e+000	-4.149281e-001	2.808713e+002
6.430134723831200e-003	3.714377e+000	3.300000e+000	-4.190298e-001	2.802490e+002
6.444860838351597e-003	3.718320e+000	3.300000e+000	-4.231236e-001	2.796208e+002
6.459586952871995e-003	3.722228e+000	3.300000e+000	-4.272093e-001	2.789867e+002
6.474313067392392e-003	3.726100e+000	3.300000e+000	-4.312871e-001	2.783465e+002
6.489039181912790e-003	3.729937e+000	3.300000e+000	-4.353569e-001	2.777003e+002
6.513091835629439e-003	3.736120e+000	3.300000e+000	-4.419934e-001	2.766322e+002
6.530272302569903e-003	3.740401e+000	3.300000e+000	-4.467243e-001	2.758602e+002
6.554324956286553e-003	3.746356e+000	3.300000e+000	-4.533302e-001	2.747651e+002
6.578377610003202e-003	3.752152e+000	3.300000e+000	-4.599186e-001	2.736544e+002
6.602430263719852e-003	3.757767e+000	3.300000e+000	-4.664892e-001	2.725280e+002
6.626482917436501e-003	3.763181e+000	3.300000e+000	-4.730416e-001	2.713860e+002
6.650535571153151e-003	3.768375e+000	3.300000e+000	-4.795746e-001	2.702286e+002
6.674588224869800e-003	3.773332e+000	3.300000e+000	-4.860865e-001	2.690558e+002
6.698640878586450e-003	3.778042e+000	3.300000e+000	-4.925752e-001	2.678675e+002
6.722693532303099e-003	3.782497e+000	3.300000e+000	-4.990383e-001	2.666640e+002
6.747727926987775e-003	3.786855e+000	3.300000e+000	-5.057413e-001	2.653949e+002
6.772762321672452e-003	3.790964e+000	3.300000e+000	-5.124062e-001	2.641096e+002
6.797796716357127e-003	3.794823e+000	3.300000e+000	-5.190329e-001	2.628081e+002
6.822831111041803e-003	3.798432e+000	3.300000e+000	-5.256216e-001	2.614904e+002
6.847865505726480e-003	3.801793e+000	3.300000e+000	-5.321721e-001	2.601565e+002
6.872899900411155e-003	3.804903e+000	3.300000e+000	-5.386845e-001	2.588063e+002
6.897934295095831e-003	3.807765e+000	3.300000e+000	-5.451588e-001	2.574399e+002
6.935731322364852e-003	3.811697e+000	3.300000e+000	-5.548589e-001	2.553466e+002
6.973528349633873e-003	3.815354e+000	3.300000e+000	-5.644663e-001	2.532180e+002
7.011325376902893e-003	3.818735e+000	3.300000e+000	-5.739810e-001	2.510542e+002
7.049122404171914e-003	3.821840e+000	3.300000e+000	-5.834030e-001	2.488550e+002
7.086919431440934e-003	3.824670e+000	3.300000e+000	-5.927324e-001	2.466205e+002
7.124716458709955e-003	3.827224e+000	3.300000e+000	-6.019691e-001	2.443508e+002
7.162513485978976e-003	3.829502e+000	3.300000e+000	-6.111131e-001	2.420458e+002
7.330882061995522e-003	3.838169e+000	3.300000e+000	-6.507329e-001	2.313721e+002
7.436419216058374e-003	3.842205e+000	3.300000e+000	-6.746807e-001	2.243261e+002
7.541956370121226e-003	3.845866e+000	3.300000e+000	-6.978141e-001	2.170550e+002
7.647493524184077e-003	3.849150e+000	3.300000e+000	-7.201330e-001	2.095590e+002
7.753030678246929e-003	3.852058e+000	3.300000e+000	-7.416376e-001	2.018381e+002
7.858567832309781e-003	3.854589e+000	3.300000e+000	-7.623278e-001	1.938921e+002
7.964104986372633e-003	3.856744e+000	3.300000e+000	-7.822036e-001	1.857212e+002
8.069642140435485e-003	3.858523e+000	3.300000e+000	-8.012649e-001	1.773254e+002
8.268199251218853e-003	3.861444e+000	3.300000e+000	-8.348666e-001	1.608718e+002
8.466756362002222e-003	3.863989e+000	3.300000e+000	-8.649650e-001	1.439622e+002
8.665313472785591e-003	3.866157e+000	3.300000e+000	-8.915600e-001	1.265965e+002
8.863870583568960e-003	3.867950e+000	3.300000e+000	-9.146517e-001	1.087747e+002
9.062427694352329e-003	3.869366e+000	3.300000e+000	-9.342401e-001	9.049677e+001
9.260984805135698e-003	3.870406e+000	3.300000e+000	-9.503252e-001	7.176280e+001
9.459541915919066e-003	3.871070e+000	3.300000e+000	-9.629070e-001	5.257276e+001
9.535381405699117e-003	3.871300e+000	3.300000e+000	-9.666495e-001	4.524185e+001
9.611220895479167e-003	3.871496e+000	3.300000e+000	-9.698397e-001	3.789570e+001
9.687060385259218e-003	3.871658e+000	3.300000e+000	-9.724777e-001	3.053433e+001
9.762899875039269e-003	3.871786e+000	3.300000e+000	-9.745633e-001	2.315773e+001
9.838739364819320e-003	3.871880e+000	3.300000e+000	-9.760967e-001	1.576590e+001
9.914578854599369e-003	3.871939e+000	3.300000e+000	-9.770778e-001	8.358835e+000
9.990418344379420e-003	3.871964e+000	3.300000e+000	-9.775066e-001	9.365423e-001
9.993854437767513e-003	3.880396e+000	3.300000e+000	-9.690818e-001	6.125247e-001
1.000072662454370e-002	3.959738e+000	3.300000e+000	-8.361059e-001	1.673307e-001
1.000937184218934e-002	3.664725e+000	3.300000e+000	-5.346347e-001	0.000000e+000
1.001871843877512e-002	3.560639e+000	3.300000e+000	-2.960759e-001	0.000000e+000
1.002752687463576e-002	3.464119e+000	3.300000e+000	-1.903926e-001	0.000000e+000
1.003914938884731e-002	3.381963e+000	3.300000e+000	-1.113758e-001	0.000000e+000
1.005818674501098e-002	3.320872e+000	3.300000e+000	-4.561266e-002	0.000000e+000
1.007853651274740e-002	3.303149e+000	3.300000e+000	-1.626200e-002	0.000000e+000
1.010705408643561e-002	3.296389e+000	3.300000e+000	-4.114522e-003	0.000000e+000
1.014222516854423e-002	3.296285e+000	3.300000e+000	-6.612318e-004	0.000000e+000
1.020381433211058e-002	3.296625e+000	3.300000e+000	-2.703934e-005	0.000000e+000
1.030521915809042e-002	3.296730e+000	3.300000e+000	4.263618e-006	0.000000e+000
1.050802881005008e-002	3.296687e+000	3.300000e+000	-1.009221e-006	0.000000e+000
1.091364811396939e-002	3.296716e+000	3.300000e+000	3.543113e-007	0.000000e+000
1.172488672180803e-002	3.296692e+000	3.300000e+000	-5.871693e-008	0.000000e+000
1.270144922180803e-002	3.296714e+000	3.300000e+000	8.675670e-009	0.000000e+000
1.367801172180803e-002	3.296694e+000	3.300000e+000	-7.993208e-009	0.000000e+000
1.999999900000000e-002	3.296703e+000	3.300000e+000	2.197049e-014	0.000000e+000
2.000000000000000e-002	3.296716e+000	3.300000e+000	1.222434e-005	2.443586e-005
2.000000100000000e-002	3.296654e+000	3.300000e+000	4.889736e-005	9.774342e-005
2.000000165000000e-002	3.296623e+000	1.155000e+000	8.067931e-005	1.612767e-004
2.000000175000000e-002	3.296633e+000	8.250000e-001	1.010930e-004	1.710510e-004
2.000000196875000e-002	3.296703e+000	1.031250e-001	1.918472e-004	1.924324e-004
2.000000200000000e-002	3.296703e+000	0.000000e+000	1.954354e-004	1.954868e-004
2.002041178099914e-002	3.296262e+000	0.000000e+000	1.994414e+000	1.995309e+000
2.004082156199828e-002	3.295821e+000	0.000000e+000	3.987448e+000	3.990135e+000
2.006123134299742e-002	3.295380e+000	0.000000e+000	5.979300e+000	5.984673e+000
2.008164112399656e-002	3.294940e+000	0.000000e+000	7.969968e+000	7.978925e+000
2.010205090499570e-002	3.294499e+000	0.000000e+000	9.959452e+000	9.972889e+000
2.012246068599485e-002	3.294059e+000	0.000000e+000	1.194775e+001	1.196657e+001
2.014287046699399e-002	3.293619e+000	0.000000e+000	1.393487e+001	1.395996e+001
2.022488408525528e-002	3.291879e+000	0.000000e+000	2.191639e+001	2.197586e+001
2.030689770351657e-002	3.290136e+000	0.000000e+000	2.985591e+001	2.996396e+001
2.038891132177786e-002	3.288391e+000	0.000000e+000	3.775340e+001	3.792427e+001
2.047092494003916e-002	3.286644e+000	0.000000e+000	4.560889e+001	4.585678e+001
2.055293855830045e-002	3.284894e+000	0.000000e+000	5.342236e+001	5.376150e+001
2.063495217656174e-002	3.283142e+000	0.000000e+000	6.119382e+001	6.163842e+001
2.071696579482303e-002	3.281387e+000	0.000000e+000	6.892326e+001	6.948754e+001
2.072745155423544e-002	3.281235e+000	0.000000e+000	6.990569e+001	7.048624e+001
2.094353309641249e-002	3.276774e+000	0.000000e+000	9.012479e+001	9.109925e+001
2.115961463858954e-002	3.272464e+000	0.000000e+000	1.096168e+002	1.110713e+002
2.137569618076659e-002	3.268304e+000	0.000000e+000	1.283817e+002	1.304025e+002
2.159177772294364e-002	3.264296e+000	0.000000e+000	1.464195e+002	1.490928e+002
2.180785926512069e-002	3.260438e+000	0.000000e+000	1.637301e+002	1.671421e+002
2.202394080729774e-002	3.256730e+000	0.000000e+000	1.803137e+002	1.845505e+002
2.224002234947479e-002	3.253174e+000	0.000000e+000	1.961702e+002	2.013180e+002
2.259915960934964e-002	3.250531e+000	0.000000e+000	2.203472e+002	2.272074e+002
2.295829686922449e-002	3.246507e+000	0.000000e+000	2.409661e+002	2.496505e+002
2.331743412909935e-002	3.241104e+000	0.000000e+000	2.580268e+002	2.686473e+002
2.367657138897420e-002	3.234320e+000	0.000000e+000	2.715294e+002	2.841978e+002
2.403570864884905e-002	3.226156e+000	0.000000e+000	2.814739e+002	2.963020e+002
2.439484590872390e-002	3.216613e+000	0.000000e+000	2.878602e+002	3.049598e+002
2.475398316859875e-002	3.205688e+000	0.000000e+000	2.906884e+002	3.101713e+002
2.512884906759221e-002	3.215409e+000	0.000000e+000	2.884130e+002	3.103984e+002
2.550371496658567e-002	3.224175e+000	0.000000e+000	2.822851e+002	3.066495e+002
2.587858086557912e-002	3.231987e+000	0.000000e+000	2.723047e+002	2.989246e+002
2.625344676457258e-002	3.238844e+000	0.000000e+000	2.584718e+002	2.872238e+002
2.662831266356603e-002	3.244748e+000	0.000000e+000	2.407864e+002	2.715469e+002
2.700317856255949e-002	3.249697e+000	0.000000e+000	2.192485e+002	2.518940e+002
2.737804446155295e-002	3.253693e+000	0.000000e+000	1.938581e+002	2.282651e+002
2.759225354669207e-002	3.257233e+000	0.000000e+000	1.780479e+002	2.133397e+002
2.780646263183119e-002	3.260919e+000	0.000000e+000	1.615451e+002	1.976367e+002
2.802067171697031e-002	3.264752e+000	0.000000e+000	1.443497e+002	1.811559e+002
2.823488080210943e-002	3.268732e+000	0.000000e+000	1.264616e+002	1.638975e+002
2.844908988724855e-002	3.272857e+000	0.000000e+000	1.078809e+002	1.458614e+002
2.866329897238767e-002	3.277129e+000	0.000000e+000	8.860757e+001	1.270477e+002
2.887750805752680e-002	3.281548e+000	0.000000e+000	6.864162e+001	1.074563e+002
2.915275924210242e-002	3.287273e+000	0.000000e+000	4.269064e+001	8.183783e+001
2.921136714738960e-002	3.288508e+000	0.000000e+000	3.709467e+001	7.629225e+001
2.926997505267678e-002	3.289745e+000	0.000000e+000	3.148503e+001	7.072569e+001
2.932858295796396e-002	3.290987e+000	0.000000e+000	2.586171e+001	6.513817e+001
2.938719086325115e-002	3.292232e+000	0.000000e+000	2.022471e+001	5.952969e+001
2.944579876853833e-002	3.293480e+000	0.000000e+000	1.457404e+001	5.390023e+001
2.950440667382551e-002	3.294733e+000	0.000000e+000	8.909698e+000	4.824980e+001
2.956301457911269e-002	3.295989e+000	0.000000e+000	3.231677e+000	4.257841e+001
2.958960346905129e-002	3.296556e+000	0.000000e+000	6.547647e-001	4.000207e+001
2.961619235898988e-002	3.297124e+000	0.000000e+000	-1.922975e+000	3.742338e+001
2.964278124892847e-002	3.297693e+000	0.000000e+000	-4.501541e+000	3.484236e+001
2.966937013886706e-002	3.298261e+000	0.000000e+000	-7.080935e+000	3.225899e+001
2.969595902880565e-002	3.298830e+000	0.000000e+000	-9.661155e+000	2.967328e+001
2.972254791874425e-002	3.299400e+000	0.000000e+000	-1.224220e+001	2.708523e+001
2.974913680868284e-002	3.299970e+000	0.000000e+000	-1.482408e+001	2.449484e+001
2.998768783531500e-002	3.305080e+000	0.000000e+000	-3.797138e+001	1.203430e+000
2.999293071502120e-002	3.360851e+000	0.000000e+000	-3.842365e+001	7.466311e-001
3.000341647443361e-002	3.535633e+000	0.000000e+000	-3.893085e+001	2.303252e-001
3.002438799325841e-002	3.305325e+000	0.000000e+000	-3.914305e+001	0.000000e+000
3.130661827993578e-002	3.303752e+000	0.000000e+000	-3.805564e+001	0.000000e+000
3.258884856661316e-002	3.302630e+000	0.000000e+000	-3.699588e+001	0.000000e+000
3.387107885329052e-002	3.301959e+000	0.000000e+000	-3.596378e+001	0.000000e+000
3.515330913996789e-002	3.301738e+000	0.000000e+000	-3.495934e+001	0.000000e+000
3.643553942664526e-002	3.301969e+000	0.000000e+000	-3.398254e+001	0.000000e+000
3.771776971332264e-002	3.302651e+000	0.000000e+000	-3.303340e+001	0.000000e+000
3.900000000000000e-002	3.303783e+000	0.000000e+000	-3.211192e+001	0.000000e+000
3.900000010000000e-002	3.911932e+000	3.300000e-001	-3.150354e+001	0.000000e+000
3.900000012500000e-002	3.981237e+000	4.125000e-001	-3.143416e+001	0.000000e+000
3.900000017500000e-002	3.984030e+000	5.775000e-001	-3.143121e+001	0.000000e+000
3.900000027500000e-002	3.984293e+000	9.075000e-001	-3.143063e+001	0.000000e+000
