time	V(Reset,R-PI_GND)	V(pulse)	V(reset)	V(vl)
0.000000000000000e+000	3.296703e+000	0.000000e+000	1.495583e-013	0.000000e+000
2.106514226137994e-005	3.296695e+000	0.000000e+000	2.058696e+000	2.059188e+000
4.213028452275988e-005	3.296686e+000	0.000000e+000	4.116121e+000	4.118060e+000
6.319542678413982e-005	3.296678e+000	0.000000e+000	6.172276e+000	6.176618e+000
8.426056904551975e-005	3.296671e+000	0.000000e+000	8.227159e+000	8.234860e+000
1.053257113068997e-004	3.296664e+000	0.000000e+000	1.028077e+001	1.029279e+001
1.263908535682796e-004	3.296657e+000	0.000000e+000	1.233311e+001	1.235040e+001
1.474559958296595e-004	3.296651e+000	0.000000e+000	1.438419e+001	1.440770e+001
2.846719919489261e-004	3.296502e+000	0.000000e+000	2.776047e+001	2.784896e+001
4.218879880681926e-004	3.296289e+000	0.000000e+000	4.098448e+001	4.117719e+001
5.591039841874592e-004	3.296012e+000	0.000000e+000	5.405622e+001	5.439239e+001
6.963199803067257e-004	3.295670e+000	0.000000e+000	6.697569e+001	6.749457e+001
8.335359764259922e-004	3.295264e+000	0.000000e+000	7.974289e+001	8.048371e+001
9.707519725452588e-004	3.294793e+000	0.000000e+000	9.235782e+001	9.335983e+001
1.107967968664525e-003	3.294258e+000	0.000000e+000	1.048205e+002	1.061229e+002
1.307209105886744e-003	3.293343e+000	0.000000e+000	1.225623e+002	1.243729e+002
1.506450243108962e-003	3.292332e+000	0.000000e+000	1.395834e+002	1.419711e+002
1.705691380331181e-003	3.291224e+000	0.000000e+000	1.558837e+002	1.589173e+002
1.904932517553399e-003	3.290020e+000	0.000000e+000	1.714634e+002	1.752116e+002
2.104173654775618e-003	3.288719e+000	0.000000e+000	1.863224e+002	1.908541e+002
2.303414791997836e-003	3.287322e+000	0.000000e+000	2.004607e+002	2.058446e+002
2.502655929220055e-003	3.285828e+000	0.000000e+000	2.138783e+002	2.201833e+002
2.753682207834832e-003	3.283818e+000	0.000000e+000	2.294423e+002	2.369993e+002
3.004708486449610e-003	3.281784e+000	0.000000e+000	2.432747e+002	2.521418e+002
3.255734765064387e-003	3.279725e+000	0.000000e+000	2.553752e+002	2.656109e+002
3.506761043679165e-003	3.277641e+000	0.000000e+000	2.657440e+002	2.774065e+002
3.757787322293943e-003	3.275533e+000	0.000000e+000	2.743810e+002	2.875287e+002
4.008813600908720e-003	3.273399e+000	0.000000e+000	2.812862e+002	2.959774e+002
4.259839879523497e-003	3.271240e+000	0.000000e+000	2.864597e+002	3.027526e+002
4.538367871646187e-003	3.259667e+000	0.000000e+000	2.897052e+002	3.078180e+002
4.816895863768878e-003	3.251374e+000	0.000000e+000	2.906307e+002	3.105369e+002
5.095423855891568e-003	3.246362e+000	0.000000e+000	2.892361e+002	3.109092e+002
5.373951848014258e-003	3.244631e+000	0.000000e+000	2.855215e+002	3.089350e+002
5.652479840136948e-003	3.246182e+000	0.000000e+000	2.794869e+002	3.046143e+002
5.931007832259639e-003	3.251013e+000	0.000000e+000	2.711323e+002	2.979470e+002
6.209535824382328e-003	3.259125e+000	0.000000e+000	2.604576e+002	2.889332e+002
6.385956390821386e-003	3.258590e+000	0.000000e+000	2.525392e+002	2.820224e+002
6.562376957260443e-003	3.258138e+000	0.000000e+000	2.438630e+002	2.743138e+002
6.738797523699499e-003	3.257768e+000	0.000000e+000	2.344292e+002	2.658073e+002
6.915218090138556e-003	3.257481e+000	0.000000e+000	2.242375e+002	2.565031e+002
7.091638656577613e-003	3.257275e+000	0.000000e+000	2.132881e+002	2.464011e+002
7.268059223016671e-003	3.257152e+000	0.000000e+000	2.015810e+002	2.355012e+002
7.444479789455727e-003	3.257111e+000	0.000000e+000	1.891161e+002	2.238036e+002
7.657471783431902e-003	3.257065e+000	0.000000e+000	1.733122e+002	2.088515e+002
7.820141493117003e-003	3.257157e+000	0.000000e+000	1.605700e+002	1.967122e+002
7.982811202802103e-003	3.257336e+000	0.000000e+000	1.474495e+002	1.841446e+002
8.145480912487204e-003	3.257602e+000	0.000000e+000	1.339508e+002	1.711487e+002
8.308150622172304e-003	3.257954e+000	0.000000e+000	1.200737e+002	1.577245e+002
8.470820331857405e-003	3.258392e+000	0.000000e+000	1.058184e+002	1.438721e+002
8.633490041542506e-003	3.258917e+000	0.000000e+000	9.118484e+001	1.295913e+002
8.796159751227606e-003	3.259529e+000	0.000000e+000	7.617299e+001	1.148823e+002
8.902070605375099e-003	3.259999e+000	0.000000e+000	6.629669e+001	1.051724e+002
9.007981459522594e-003	3.260501e+000	0.000000e+000	5.635498e+001	9.537358e+001
9.113892313670087e-003	3.261035e+000	0.000000e+000	4.634784e+001	8.548569e+001
9.219803167817580e-003	3.261602e+000	0.000000e+000	3.627528e+001	7.550879e+001
9.325714021965074e-003	3.262201e+000	0.000000e+000	2.613730e+001	6.544287e+001
9.431624876112568e-003	3.262832e+000	0.000000e+000	1.593389e+001	5.528793e+001
9.537535730260061e-003	3.263496e+000	0.000000e+000	5.665070e+000	4.504397e+001
9.560648872463520e-003	3.263644e+000	0.000000e+000	3.426085e+000	4.280715e+001
9.583762014666977e-003	3.263793e+000	0.000000e+000	1.186285e+000	4.056837e+001
9.606875156870436e-003	3.263945e+000	0.000000e+000	-1.054332e+000	3.832762e+001
9.629988299073895e-003	3.264099e+000	0.000000e+000	-3.295766e+000	3.608492e+001
9.653101441277354e-003	3.264254e+000	0.000000e+000	-5.538016e+000	3.384025e+001
9.676214583480811e-003	3.264411e+000	0.000000e+000	-7.781082e+000	3.159362e+001
9.699327725684270e-003	3.264570e+000	0.000000e+000	-1.002497e+001	2.934503e+001
9.986047717575275e-003	3.266678e+000	0.000000e+000	-3.785262e+001	1.363739e+000
9.994239717343589e-003	3.439835e+000	0.000000e+000	-3.847326e+001	7.360946e-001
1.001062371688022e-002	3.454559e+000	0.000000e+000	-3.900749e+001	1.876765e-001
1.004339171595348e-002	3.267094e+000	0.000000e+000	-3.916663e+001	0.000000e+000
1.050214370297908e-002	3.269756e+000	0.000000e+000	-3.876955e+001	0.000000e+000
1.102643168815121e-002	3.271370e+000	0.000000e+000	-3.832207e+001	0.000000e+000
1.200299418815121e-002	3.274830e+000	0.000000e+000	-3.750183e+001	0.000000e+000
1.297955668815121e-002	3.279503e+000	0.000000e+000	-3.669789e+001	0.000000e+000
1.395611918815121e-002	3.283325e+000	0.000000e+000	-3.591192e+001	0.000000e+000
1.493268168815121e-002	3.286449e+000	0.000000e+000	-3.514340e+001	0.000000e+000
1.590924418815121e-002	3.288998e+000	0.000000e+000	-3.439182e+001	0.000000e+000
1.688580668815121e-002	3.291080e+000	0.000000e+000	-3.365673e+001	0.000000e+000
1.786236918815121e-002	3.292778e+000	0.000000e+000	-3.293768e+001	0.000000e+000
1.883893168815121e-002	3.294155e+000	0.000000e+000	-3.223428e+001	0.000000e+000
1.981549418815121e-002	3.298475e+000	0.000000e+000	-3.154292e+001	0.000000e+000
1.999097026236996e-002	3.299156e+000	0.000000e+000	-3.142048e+001	0.000000e+000
1.999478495963558e-002	3.338484e+000	0.000000e+000	-3.137851e+001	3.933120e-002
2.000241435416683e-002	3.350134e+000	0.000000e+000	-3.112560e+001	2.869608e-001
2.000432170279964e-002	3.299164e+000	0.000000e+000	-3.098884e+001	4.224178e-001
2.005064302673938e-002	3.299196e+000	0.000000e+000	-2.642971e+001	4.952208e+000
2.009696435067911e-002	3.299219e+000	0.000000e+000	-2.187866e+001	9.478554e+000
2.014328567461884e-002	3.299231e+000	0.000000e+000	-1.733571e+001	1.400146e+001
2.018960699855857e-002	3.299233e+000	0.000000e+000	-1.280084e+001	1.852091e+001
2.023592832249830e-002	3.299225e+000	0.000000e+000	-8.274064e+000	2.303693e+001
2.028224964643804e-002	3.299207e+000	0.000000e+000	-3.755376e+000	2.754950e+001
2.032857097037777e-002	3.299179e+000	0.000000e+000	7.552238e-001	3.205863e+001
2.034573710807308e-002	3.299179e+000	0.000000e+000	2.423208e+000	3.372723e+001
2.036290324576839e-002	3.299174e+000	0.000000e+000	4.089456e+000	3.539472e+001
2.038006938346371e-002	3.299164e+000	0.000000e+000	5.753967e+000	3.706111e+001
2.039723552115902e-002	3.299149e+000	0.000000e+000	7.416741e+000	3.872640e+001
2.041440165885433e-002	3.299130e+000	0.000000e+000	9.077778e+000	4.039058e+001
2.043156779654964e-002	3.299105e+000	0.000000e+000	1.073708e+001	4.205365e+001
2.044873393424496e-002	3.299076e+000	0.000000e+000	1.239464e+001	4.371563e+001
2.058224833854183e-002	3.298906e+000	0.000000e+000	2.527138e+001	5.664934e+001
2.071576274283871e-002	3.298667e+000	0.000000e+000	3.795670e+001	6.942801e+001
2.084927714713558e-002	3.298359e+000	0.000000e+000	5.045062e+001	8.205163e+001
2.098279155143246e-002	3.297983e+000	0.000000e+000	6.275313e+001	9.452020e+001
2.111630595572933e-002	3.297537e+000	0.000000e+000	7.486424e+001	1.068337e+002
2.124982036002621e-002	3.297023e+000	0.000000e+000	8.678393e+001	1.189922e+002
2.138333476432308e-002	3.296440e+000	0.000000e+000	9.851222e+001	1.309956e+002
2.151221703622598e-002	3.295870e+000	0.000000e+000	1.095733e+002	1.423553e+002
2.164109930812888e-002	3.295255e+000	0.000000e+000	1.203280e+002	1.534375e+002
2.176998158003179e-002	3.294596e+000	0.000000e+000	1.307764e+002	1.642423e+002
2.189886385193469e-002	3.293893e+000	0.000000e+000	1.409184e+002	1.747697e+002
2.202774612383759e-002	3.293146e+000	0.000000e+000	1.507541e+002	1.850197e+002
2.215662839574049e-002	3.292355e+000	0.000000e+000	1.602835e+002	1.949923e+002
2.228551066764339e-002	3.291519e+000	0.000000e+000	1.695065e+002	2.046874e+002
2.228741801627621e-002	3.291550e+000	0.000000e+000	1.696398e+002	2.048278e+002
2.250839797930634e-002	3.289964e+000	0.000000e+000	1.846552e+002	2.207228e+002
2.272937794233648e-002	3.288329e+000	0.000000e+000	1.983964e+002	2.353988e+002
2.295035790536661e-002	3.286643e+000	0.000000e+000	2.108635e+002	2.488558e+002
2.317133786839674e-002	3.284908e+000	0.000000e+000	2.220564e+002	2.610939e+002
2.339231783142688e-002	3.283123e+000	0.000000e+000	2.319750e+002	2.721130e+002
2.361329779445701e-002	3.281288e+000	0.000000e+000	2.406195e+002	2.819131e+002
2.383427775748714e-002	3.279404e+000	0.000000e+000	2.479898e+002	2.904943e+002
2.411111578762107e-002	3.266451e+000	0.000000e+000	2.550309e+002	2.991016e+002
2.438795381775500e-002	3.257077e+000	0.000000e+000	2.597482e+002	3.053885e+002
2.466479184788893e-002	3.251281e+000	0.000000e+000	2.621419e+002	3.093547e+002
2.494162987802286e-002	3.249064e+000	0.000000e+000	2.622117e+002	3.110005e+002
2.521846790815679e-002	3.250426e+000	0.000000e+000	2.599578e+002	3.103257e+002
2.549530593829072e-002	3.255366e+000	0.000000e+000	2.553802e+002	3.073303e+002
2.577214396842464e-002	3.263885e+000	0.000000e+000	2.484789e+002	3.020145e+002
2.597105318298938e-002	3.264076e+000	0.000000e+000	2.420512e+002	2.966768e+002
2.616996239755411e-002	3.264142e+000	0.000000e+000	2.345836e+002	2.902568e+002
2.636887161211884e-002	3.264084e+000	0.000000e+000	2.260760e+002	2.827547e+002
2.656778082668357e-002	3.263900e+000	0.000000e+000	2.165285e+002	2.741703e+002
2.676669004124831e-002	3.263593e+000	0.000000e+000	2.059411e+002	2.645036e+002
2.696559925581304e-002	3.263161e+000	0.000000e+000	1.943138e+002	2.537547e+002
2.716450847037777e-002	3.262604e+000	0.000000e+000	1.816465e+002	2.419236e+002
2.730701466108648e-002	3.262484e+000	0.000000e+000	1.720374e+002	2.328740e+002
2.744952085179518e-002	3.262428e+000	0.000000e+000	1.620458e+002	2.234079e+002
2.759202704250388e-002	3.262437e+000	0.000000e+000	1.516716e+002	2.135253e+002
2.773453323321259e-002	3.262512e+000	0.000000e+000	1.409150e+002	2.032262e+002
2.787703942392130e-002	3.262650e+000	0.000000e+000	1.297758e+002	1.925106e+002
2.801954561463000e-002	3.262854e+000	0.000000e+000	1.182541e+002	1.813785e+002
2.816205180533871e-002	3.263123e+000	0.000000e+000	1.063498e+002	1.698300e+002
2.830374056091906e-002	3.263440e+000	0.000000e+000	9.420456e+001	1.579998e+002
2.844542931649942e-002	3.263823e+000	0.000000e+000	8.184767e+001	1.459178e+002
2.858711807207978e-002	3.264273e+000	0.000000e+000	6.927918e+001	1.335842e+002
2.872880682766013e-002	3.264789e+000	0.000000e+000	5.649909e+001	1.209989e+002
2.887049558324049e-002	3.265371e+000	0.000000e+000	4.350739e+001	1.081619e+002
2.901218433882085e-002	3.266019e+000	0.000000e+000	3.030409e+001	9.507316e+001
2.915387309440121e-002	3.266734e+000	0.000000e+000	1.688918e+001	8.173276e+001
2.917485392936214e-002	3.266857e+000	0.000000e+000	1.490126e+001	7.975208e+001
2.919583476432308e-002	3.266977e+000	0.000000e+000	1.291101e+001	7.776816e+001
2.921681559928402e-002	3.267096e+000	0.000000e+000	1.091843e+001	7.578097e+001
2.923779643424496e-002	3.267212e+000	0.000000e+000	8.923525e+000	7.379054e+001
2.925877726920589e-002	3.267327e+000	0.000000e+000	6.926294e+000	7.179685e+001
2.927975810416683e-002	3.267439e+000	0.000000e+000	4.926735e+000	6.979991e+001
2.930073893912777e-002	3.267549e+000	0.000000e+000	2.924848e+000	6.779971e+001
2.933261890913335e-002	3.267739e+000	0.000000e+000	-1.212337e-001	6.475443e+001
2.936449887913893e-002	3.267931e+000	0.000000e+000	-3.170891e+000	6.170342e+001
2.939637884914451e-002	3.268125e+000	0.000000e+000	-6.224125e+000	5.864669e+001
2.942825881915009e-002	3.268322e+000	0.000000e+000	-9.280934e+000	5.558422e+001
2.946013878915567e-002	3.268521e+000	0.000000e+000	-1.234132e+001	5.251602e+001
2.949201875916125e-002	3.268722e+000	0.000000e+000	-1.540528e+001	4.944210e+001
2.952389872916683e-002	3.268925e+000	0.000000e+000	-1.847282e+001	4.636244e+001
2.991490519889339e-002	3.271656e+000	0.000000e+000	-5.619395e+001	8.316461e+000
2.999119914420589e-002	3.272228e+000	0.000000e+000	-6.354881e+001	8.602245e-001
2.999501384147152e-002	3.315323e+000	0.000000e+000	-6.387321e+001	5.304236e-001
3.000264323600277e-002	3.434784e+000	0.000000e+000	-6.423032e+001	1.624547e-001
3.001790202506527e-002	3.272430e+000	0.000000e+000	-6.437099e+001	0.000000e+000
3.029256022819027e-002	3.273624e+000	0.000000e+000	-6.398093e+001	0.000000e+000
3.056721843131527e-002	3.274647e+000	0.000000e+000	-6.359336e+001	0.000000e+000
3.084187663444027e-002	3.275498e+000	0.000000e+000	-6.320829e+001	0.000000e+000
3.111653483756527e-002	3.276178e+000	0.000000e+000	-6.282571e+001	0.000000e+000
3.139119304069027e-002	3.276687e+000	0.000000e+000	-6.244564e+001	0.000000e+000
3.166585124381527e-002	3.277025e+000	0.000000e+000	-6.206805e+001	0.000000e+000
3.194050944694027e-002	3.277191e+000	0.000000e+000	-6.169297e+001	0.000000e+000
3.291707194694027e-002	3.281940e+000	0.000000e+000	-6.037334e+001	0.000000e+000
3.389363444694027e-002	3.285812e+000	0.000000e+000	-5.908270e+001	0.000000e+000
3.487019694694027e-002	3.288975e+000	0.000000e+000	-5.782027e+001	0.000000e+000
3.584675944694027e-002	3.291546e+000	0.000000e+000	-5.658533e+001	0.000000e+000
3.682332194694027e-002	3.293629e+000	0.000000e+000	-5.537720e+001	0.000000e+000
3.779988444694027e-002	3.295319e+000	0.000000e+000	-5.419520e+001	0.000000e+000
3.877644694694027e-002	3.296688e+000	0.000000e+000	-5.303872e+001	0.000000e+000
3.987507975944027e-002	3.303959e+000	0.000000e+000	-5.176157e+001	0.000000e+000
3.998570598014339e-002	3.304058e+000	0.000000e+000	-5.163530e+001	0.000000e+000
3.999333537467464e-002	3.444046e+000	0.000000e+000	-5.148662e+001	1.400037e-001
4.000859416373714e-002	3.369190e+000	0.000000e+000	-5.070422e+001	9.051636e-001
4.001240886100277e-002	3.304066e+000	0.000000e+000	-5.039224e+001	1.212880e+000
4.008597802255411e-002	3.304106e+000	0.000000e+000	-4.311697e+001	8.412333e+000
4.015954718410545e-002	3.304123e+000	0.000000e+000	-3.586748e+001	1.559772e+001
4.023311634565679e-002	3.304117e+000	0.000000e+000	-2.864376e+001	2.276904e+001
4.030668550720813e-002	3.304088e+000	0.000000e+000	-2.144582e+001	2.992629e+001
4.038025466875946e-002	3.304036e+000	0.000000e+000	-1.427366e+001	3.706948e+001
4.045382383031081e-002	3.303960e+000	0.000000e+000	-7.127283e+000	4.419860e+001
4.052739299186214e-002	3.303862e+000	0.000000e+000	-6.680600e-003	5.131365e+001
4.055409587272152e-002	3.303819e+000	0.000000e+000	2.565409e+000	5.388655e+001
4.058079875358089e-002	3.303774e+000	0.000000e+000	5.131748e+000	5.645521e+001
4.060750163444027e-002	3.303727e+000	0.000000e+000	7.692336e+000	5.901962e+001
4.063420451529964e-002	3.303677e+000	0.000000e+000	1.024717e+001	6.157980e+001
4.066090739615902e-002	3.303626e+000	0.000000e+000	1.279626e+001	6.413573e+001
4.068761027701839e-002	3.303573e+000	0.000000e+000	1.533960e+001	6.668741e+001
4.071431315787777e-002	3.303517e+000	0.000000e+000	1.787719e+001	6.923486e+001
4.086199643773268e-002	3.303149e+000	0.000000e+000	3.185949e+001	8.330084e+001
4.100967971758759e-002	3.302707e+000	0.000000e+000	4.554695e+001	9.711482e+001
4.115736299744250e-002	3.302192e+000	0.000000e+000	5.893958e+001	1.106768e+002
4.130504627729741e-002	3.301603e+000	0.000000e+000	7.203738e+001	1.239867e+002
4.145272955715233e-002	3.300942e+000	0.000000e+000	8.484035e+001	1.370447e+002
4.160041283700723e-002	3.300208e+000	0.000000e+000	9.734849e+001	1.498506e+002
4.174809611686214e-002	3.299400e+000	0.000000e+000	1.095618e+002	1.624046e+002
4.190558861825723e-002	3.298613e+000	0.000000e+000	1.221504e+002	1.754012e+002
4.206308111965233e-002	3.297718e+000	0.000000e+000	1.341991e+002	1.878962e+002
4.222057362104741e-002	3.296715e+000	0.000000e+000	1.457078e+002	1.998894e+002
4.237806612244250e-002	3.295604e+000	0.000000e+000	1.566765e+002	2.113810e+002
4.253555862383759e-002	3.294386e+000	0.000000e+000	1.671052e+002	2.223708e+002
4.269305112523268e-002	3.293060e+000	0.000000e+000	1.769940e+002	2.328590e+002
4.285054362662777e-002	3.291626e+000	0.000000e+000	1.863428e+002	2.428455e+002
4.307016119777733e-002	3.290348e+000	0.000000e+000	1.983302e+002	2.557820e+002
4.328977876892688e-002	3.288802e+000	0.000000e+000	2.089449e+002	2.673845e+002
4.350939634007643e-002	3.286988e+000	0.000000e+000	2.181869e+002	2.776532e+002
4.372901391122598e-002	3.284906e+000	0.000000e+000	2.260563e+002	2.865878e+002
4.394863148237554e-002	3.282556e+000	0.000000e+000	2.325529e+002	2.941885e+002
4.416824905352509e-002	3.279939e+000	0.000000e+000	2.376769e+002	3.004553e+002
4.438786662467464e-002	3.277054e+000	0.000000e+000	2.414282e+002	3.053881e+002
4.463745681719696e-002	3.265717e+000	0.000000e+000	2.437355e+002	3.090684e+002
4.488704700971929e-002	3.257782e+000	0.000000e+000	2.441786e+002	3.108633e+002
4.513663720224161e-002	3.253249e+000	0.000000e+000	2.427573e+002	3.107727e+002
4.538622739476393e-002	3.252118e+000	0.000000e+000	2.394718e+002	3.087967e+002
4.563581758728625e-002	3.254388e+000	0.000000e+000	2.343219e+002	3.049353e+002
4.588540777980858e-002	3.260061e+000	0.000000e+000	2.273077e+002	2.991884e+002
4.613499797233089e-002	3.269135e+000	0.000000e+000	2.184293e+002	2.915562e+002
4.631265387355858e-002	3.268522e+000	0.000000e+000	2.109988e+002	2.849762e+002
4.649030977478625e-002	3.268002e+000	0.000000e+000	2.027846e+002	2.775740e+002
4.666796567601393e-002	3.267574e+000	0.000000e+000	1.937866e+002	2.693495e+002
4.684562157724161e-002	3.267239e+000	0.000000e+000	1.840050e+002	2.603028e+002
4.702327747846929e-002	3.266995e+000	0.000000e+000	1.734397e+002	2.504339e+002
4.720093337969696e-002	3.266844e+000	0.000000e+000	1.620907e+002	2.397427e+002
4.737858928092464e-002	3.266785e+000	0.000000e+000	1.499579e+002	2.282292e+002
4.745679057486996e-002	3.266708e+000	0.000000e+000	1.444407e+002	2.229660e+002
4.758730771702956e-002	3.266689e+000	0.000000e+000	1.349120e+002	2.138418e+002
4.771782485918915e-002	3.266724e+000	0.000000e+000	1.250952e+002	2.043994e+002
4.784834200134875e-002	3.266812e+000	0.000000e+000	1.149902e+002	1.946388e+002
4.797885914350835e-002	3.266954e+000	0.000000e+000	1.045970e+002	1.845600e+002
4.810937628566795e-002	3.267149e+000	0.000000e+000	9.391558e+001	1.741630e+002
4.823989342782754e-002	3.267398e+000	0.000000e+000	8.294602e+001	1.634478e+002
4.837041056998714e-002	3.267700e+000	0.000000e+000	7.168828e+001	1.524144e+002
4.847476978803960e-002	3.268011e+000	0.000000e+000	6.253534e+001	1.434163e+002
4.857912900609206e-002	3.268355e+000	0.000000e+000	5.327507e+001	1.342891e+002
4.868348822414451e-002	3.268731e+000	0.000000e+000	4.390746e+001	1.250327e+002
4.878784744219696e-002	3.269142e+000	0.000000e+000	3.443252e+001	1.156470e+002
4.889220666024942e-002	3.269585e+000	0.000000e+000	2.485024e+001	1.061322e+002
4.899656587830188e-002	3.270061e+000	0.000000e+000	1.516062e+001	9.648809e+001
4.910092509635433e-002	3.270571e+000	0.000000e+000	5.363674e+000	8.671481e+001
4.911046183951839e-002	3.270610e+000	0.000000e+000	4.467055e+000	8.581917e+001
